
T1F54 000:466 SEGGER J-Link V4.80g Log File (0001ms, 0266ms total)
T1F54 000:466 DLL Compiled: Feb 13 2014 20:50:02 (0001ms, 0266ms total)
T1F54 000:466 Logging started @ 2017-09-11 20:11 (0001ms, 0266ms total)
T1F54 000:467 JLINK_SetWarnOutHandler(...) (0000ms, 0266ms total)
T1F54 000:467 JLINK_OpenEx(...)
Firmware: J-Link ARM-OB STM32 compiled Aug 22 2012 19:52:04
Hardware: V7.00
S/N: 20090928
Feature(s): RDI,FlashDL,FlashBP,JFlash,GDBFull  returns O.K. (0265ms, 0531ms total)
T1F54 000:732 JLINK_SetErrorOutHandler(...) (0000ms, 0531ms total)
T1F54 000:732 JLINK_ExecCommand("ProjectFile = "C:\Users\ASUS\Desktop\代码\代码\实训挖空代码\FTC-Explorer-V1.1\JLinkSettings.ini"", ...)  returns 0x00 (0001ms, 0532ms total)
T1F54 000:742 JLINK_ExecCommand("Device = STM32F103C8", ...)Device "STM32F103C8" selected (64 KB flash, 20 KB RAM).  returns 0x00 (0008ms, 0540ms total)
T1F54 000:750 JLINK_ExecCommand("DisableConnectionTimeout", ...)  returns 0x01 (0000ms, 0540ms total)
T1F54 000:750 JLINK_GetHardwareVersion()  returns 0x11170 (0000ms, 0540ms total)
T1F54 000:750 JLINK_GetDLLVersion()  returns 48007 (0000ms, 0540ms total)
T1F54 000:751 JLINK_GetFirmwareString(...) (0000ms, 0540ms total)
T1F54 000:802 JLINK_GetDLLVersion()  returns 48007 (0000ms, 0540ms total)
T1F54 000:802 JLINK_GetCompileDateTime() (0000ms, 0540ms total)
T1F54 000:807 JLINK_GetFirmwareString(...) (0000ms, 0540ms total)
T1F54 000:811 JLINK_GetHardwareVersion()  returns 0x11170 (0001ms, 0541ms total)
T1F54 000:836 JLINK_TIF_Select(JLINKARM_TIF_SWD)  returns 0x00 (0001ms, 0542ms total)
T1F54 000:837 JLINK_SetSpeed(5000) (0000ms, 0542ms total)
T1F54 000:837 JLINK_GetId() >0x108 TIF>Found SWD-DP with ID 0x1BA01477 >0x0D TIF> >0x28 TIF> >0x0D TIF> >0x28 TIF> >0x0D TIF> >0x21 TIF> >0x0D TIF> >0x28 TIF> >0x0D TIF> >0x28 TIF> >0x0D TIF> >0x28 TIF> >0x0D TIF> >0x21 TIF> >0x0D TIF> >0x21 TIF> >0x0D TIF> >0x28 TIF> >0x0D TIF> >0x21 TIF> >0x0D TIF> >0x21 TIF> >0x0D TIF> >0x28 TIF> >0x0D TIF> >0x28 TIF> >0x108 TIF>Found SWD-DP with ID 0x1BA01477 >0x0D TIF> >0x21 TIF> >0x0D TIF> >0x28 TIF> >0x0D TIF> >0x28 TIF> >0x0D TIF> >0x21 TIF> >0x0D TIF> >0x28 TIF>
 >0x0D TIF> >0x21 TIF> >0x0D TIF> >0x21 TIF> >0x0D TIF> >0x21 TIF> >0x0D TIF> >0x21 TIF> >0x0D TIF> >0x28 TIF> >0x0D TIF> >0x28 TIF> >0x0D TIF> >0x21 TIF> >0x0D TIF> >0x28 TIF> >0x0D TIF> >0x28 TIF> >0x0D TIF> >0x28 TIF> >0x0D TIF> >0x21 TIF> >0x0D TIF> >0x21 TIF> >0x0D TIF> >0x28 TIF> >0x0D TIF> >0x21 TIF> >0x0D TIF> >0x21 TIF>Found Cortex-M3 r1p1, Little endian. -- CPU_WriteMem(4 bytes @ 0xE0002000) -- CPU_ReadMem(4 bytes @ 0xE000EDF0) -- CPU_WriteMem(4 bytes @ 0xE000EDF0)
 -- CPU_ReadMem(4 bytes @ 0xE0002000)FPUnit: 6 code (BP) slots and 2 literal slots -- CPU_ReadMem(4 bytes @ 0xE000EDFC) -- CPU_WriteMem(4 bytes @ 0xE000EDFC) -- CPU_ReadMem(4 bytes @ 0xE0001000) -- CPU_WriteMem(4 bytes @ 0xE0001000) -- CPU_ReadMem(4 bytes @ 0xE00FF010)TPIU fitted. -- CPU_ReadMem(4 bytes @ 0xE00FF014) -- CPU_ReadMem(4 bytes @ 0xE00FF018) >0x0D TIF> >0x21 TIF>  returns 0x1BA01477 (0058ms, 0600ms total)
T1F54 000:895 JLINK_GetDeviceFamily()  returns 3 (0001ms, 0601ms total)
T1F54 000:900 JLINK_ReadMem (0xE00FFFF0, 0x0010 Bytes, ...) -- CPU is running -- CPU_ReadMem(16 bytes @ 0xE00FFFF0) -- Data:  0D 00 00 00 10 00 00 00 05 00 00 00 B1 00 00 00  returns 0x00 (0002ms, 0603ms total)
T1F54 000:902 JLINK_ReadMem (0xE00FFFD0, 0x0020 Bytes, ...) -- CPU is running -- CPU_ReadMem(32 bytes @ 0xE00FFFD0) -- Data:  00 00 00 00 00 00 00 00 00 00 00 00 00 00 00 00 ...  returns 0x00 (0001ms, 0604ms total)
T1F54 000:903 JLINK_ReadMem (0xE00FF000, 0x0018 Bytes, ...) -- CPU is running -- CPU_ReadMem(24 bytes @ 0xE00FF000) -- Data:  03 F0 F0 FF 03 20 F0 FF 03 30 F0 FF 03 10 F0 FF ...  returns 0x00 (0001ms, 0605ms total)
T1F54 000:904 JLINK_ReadMemU32(0xE000ED00, 0x0001 Items, ...) -- CPU is running -- CPU_ReadMem(4 bytes @ 0xE000ED00) -- Data:  31 C2 1F 41  returns 0x01 (0001ms, 0606ms total)
T1F54 000:905 JLINK_SetResetType(JLINKARM_RESET_TYPE_NORMAL)  returns JLINKARM_RESET_TYPE_NORMAL (0000ms, 0606ms total)
T1F54 000:905 JLINK_Reset() -- CPU is running -- CPU_WriteMem(4 bytes @ 0xE000EDF0) -- CPU is running -- CPU_WriteMem(4 bytes @ 0xE000EDFC) >0x35 TIF> -- CPU is running -- CPU_WriteMem(4 bytes @ 0xE000ED0C) -- CPU is running -- CPU_ReadMem(4 bytes @ 0xE000EDF0) -- CPU is running -- CPU_ReadMem(4 bytes @ 0xE000EDF0) -- CPU is running -- CPU_ReadMem(4 bytes @ 0xE000EDF0) -- CPU is running -- CPU_ReadMem(4 bytes @ 0xE000EDF0) -- CPU is running -- CPU_ReadMem(4 bytes @ 0xE000EDF0) -- CPU is running
 -- CPU_ReadMem(4 bytes @ 0xE000EDF0) -- CPU is running -- CPU_ReadMem(4 bytes @ 0xE000EDF0) -- CPU is running -- CPU_ReadMem(4 bytes @ 0xE000EDF0) -- CPU is running -- CPU_ReadMem(4 bytes @ 0xE000EDF0) -- CPU is running -- CPU_ReadMem(4 bytes @ 0xE000EDF0) -- CPU is running -- CPU_ReadMem(4 bytes @ 0xE000EDF0) -- CPU is running -- CPU_ReadMem(4 bytes @ 0xE000EDF0) -- CPU is running -- CPU_ReadMem(4 bytes @ 0xE000EDF0) -- CPU is running -- CPU_WriteMem(4 bytes @ 0xE000EDF0) -- CPU is running
 -- CPU_WriteMem(4 bytes @ 0xE000EDFC) -- CPU is running -- CPU_ReadMem(4 bytes @ 0xE000EDF0) -- CPU_WriteMem(4 bytes @ 0xE0002000) -- CPU_ReadMem(4 bytes @ 0xE000EDFC) -- CPU_ReadMem(4 bytes @ 0xE0001000) (0029ms, 0635ms total)
T1F54 000:934 JLINK_Halt()  returns 0x00 (0000ms, 0635ms total)
T1F54 000:934 JLINK_IsHalted()  returns TRUE (0000ms, 0635ms total)
T1F54 000:934 JLINK_ReadMemU32(0xE000EDF0, 0x0001 Items, ...) -- CPU_ReadMem(4 bytes @ 0xE000EDF0) -- Data:  03 00 03 00  returns 0x01 (0001ms, 0636ms total)
T1F54 000:935 JLINK_WriteU32(0xE000EDF0, 0xA05F0003) -- CPU_WriteMem(4 bytes @ 0xE000EDF0)  returns 0x00 (0001ms, 0637ms total)
T1F54 000:936 JLINK_WriteU32(0xE000EDFC, 0x01000000) -- CPU_WriteMem(4 bytes @ 0xE000EDFC)  returns 0x00 (0000ms, 0637ms total)
T1F54 000:960 JLINK_GetHWStatus(...)  returns 0x00 (0000ms, 0637ms total)
T1F54 000:984 JLINK_GetNumBPUnits(Type = 0xFFFFFF00)  returns 0x06 (0000ms, 0637ms total)
T1F54 000:984 JLINK_GetNumBPUnits(Type = 0xF0)  returns 0x2000 (0000ms, 0637ms total)
T1F54 000:984 JLINK_GetNumWPUnits()  returns 0x04 (0000ms, 0637ms total)
T1F54 001:001 JLINK_GetSpeed()  returns 0xFA0 (0000ms, 0637ms total)
T1F54 001:016 JLINK_ReadMemU32(0xE000E004, 0x0001 Items, ...) -- CPU_ReadMem(4 bytes @ 0xE000E004) -- Data:  01 00 00 00  returns 0x01 (0001ms, 0638ms total)
T1F54 001:017 JLINK_ReadMemU32(0xE000E004, 0x0001 Items, ...) -- CPU_ReadMem(4 bytes @ 0xE000E004) -- Data:  01 00 00 00  returns 0x01 (0000ms, 0638ms total)
T1F54 001:017 JLINK_WriteMem(0xE0001000, 0x001C Bytes, ...) -- Data:  01 00 00 00 00 00 00 00 00 00 00 00 00 00 00 00 ... -- CPU_WriteMem(28 bytes @ 0xE0001000)  returns 0x1C (0001ms, 0639ms total)
T1F54 001:018 JLINK_ReadMem (0xE0001000, 0x001C Bytes, ...) -- CPU_ReadMem(28 bytes @ 0xE0001000) -- Data:  01 00 00 40 00 00 00 00 00 00 00 00 00 00 00 00 ...  returns 0x00 (0001ms, 0640ms total)
T1F54 001:019 JLINK_Halt()  returns 0x00 (0000ms, 0640ms total)
T1F54 001:019 JLINK_IsHalted()  returns TRUE (0000ms, 0640ms total)
T1F54 001:026 JLINK_WriteMem(0x20000000, 0x0164 Bytes, ...) -- Data:  00 BE 0A E0 0D 78 2D 06 68 40 08 24 40 00 00 D3 ... -- CPU_WriteMem(356 bytes @ 0x20000000)  returns 0x164 (0005ms, 0645ms total)
T1F54 001:031 JLINK_WriteReg(R0, 0x08000000)  returns 0x00 (0000ms, 0645ms total)
T1F54 001:031 JLINK_WriteReg(R1, 0x007A1200)  returns 0x00 (0000ms, 0645ms total)
T1F54 001:031 JLINK_WriteReg(R2, 0x00000001)  returns 0x00 (0000ms, 0645ms total)
T1F54 001:031 JLINK_WriteReg(R3, 0x00000000)  returns 0x00 (0000ms, 0645ms total)
T1F54 001:031 JLINK_WriteReg(R4, 0x00000000)  returns 0x00 (0000ms, 0645ms total)
T1F54 001:031 JLINK_WriteReg(R5, 0x00000000)  returns 0x00 (0000ms, 0645ms total)
T1F54 001:031 JLINK_WriteReg(R6, 0x00000000)  returns 0x00 (0000ms, 0645ms total)
T1F54 001:031 JLINK_WriteReg(R7, 0x00000000)  returns 0x00 (0000ms, 0645ms total)
T1F54 001:031 JLINK_WriteReg(R8, 0x00000000)  returns 0x00 (0000ms, 0645ms total)
T1F54 001:031 JLINK_WriteReg(R9, 0x20000160)  returns 0x00 (0000ms, 0645ms total)
T1F54 001:031 JLINK_WriteReg(R10, 0x00000000)  returns 0x00 (0000ms, 0645ms total)
T1F54 001:031 JLINK_WriteReg(R11, 0x00000000)  returns 0x00 (0001ms, 0646ms total)
T1F54 001:032 JLINK_WriteReg(R12, 0x00000000)  returns 0x00 (0000ms, 0646ms total)
T1F54 001:032 JLINK_WriteReg(R13 (SP), 0x20000800)  returns 0x00 (0000ms, 0646ms total)
T1F54 001:032 JLINK_WriteReg(R14, 0x20000001)  returns 0x00 (0000ms, 0646ms total)
T1F54 001:032 JLINK_WriteReg(R15 (PC), 0x20000038)  returns 0x00 (0000ms, 0646ms total)
T1F54 001:032 JLINK_WriteReg(XPSR, 0x01000000)  returns 0x00 (0000ms, 0646ms total)
T1F54 001:032 JLINK_WriteReg(MSP, 0x20000800)  returns 0x00 (0000ms, 0646ms total)
T1F54 001:032 JLINK_WriteReg(PSP, 0x20000800)  returns 0x00 (0000ms, 0646ms total)
T1F54 001:032 JLINK_WriteReg(CFBP, 0x00000000)  returns 0x00 (0000ms, 0646ms total)
T1F54 001:032 JLINK_SetBPEx(Addr = 0x20000000, Type = 0xFFFFFFF2) -- CPU_ReadMem(2 bytes @ 0x20000000)  returns 0x00000001 (0001ms, 0647ms total)
T1F54 001:033 JLINK_Go() -- CPU_WriteMem(2 bytes @ 0x20000000) -- CPU_WriteMem(4 bytes @ 0xE0002008) -- CPU_WriteMem(4 bytes @ 0xE000200C) -- CPU_WriteMem(4 bytes @ 0xE0002010) -- CPU_WriteMem(4 bytes @ 0xE0002014) -- CPU_WriteMem(4 bytes @ 0xE0002018) -- CPU_WriteMem(4 bytes @ 0xE000201C) -- CPU_WriteMem(4 bytes @ 0xE0001004) (0009ms, 0656ms total)
T1F54 001:042 JLINK_IsHalted() -- CPU_ReadMem(2 bytes @ 0x20000000)  returns TRUE (0004ms, 0660ms total)
T1F54 001:046 JLINK_ReadReg(R15 (PC))  returns 0x20000000 (0000ms, 0656ms total)
T1F54 001:046 JLINK_ClrBPEx(BPHandle = 0x00000001)  returns 0x00 (0000ms, 0656ms total)
T1F54 001:046 JLINK_ReadReg(R0)  returns 0x00000000 (0000ms, 0656ms total)
T1F54 001:047 JLINK_WriteReg(R0, 0x08000000)  returns 0x00 (0000ms, 0656ms total)
T1F54 001:047 JLINK_WriteReg(R1, 0x007A1200)  returns 0x00 (0000ms, 0656ms total)
T1F54 001:047 JLINK_WriteReg(R2, 0x00000001)  returns 0x00 (0000ms, 0656ms total)
T1F54 001:047 JLINK_WriteReg(R3, 0x00000000)  returns 0x00 (0000ms, 0656ms total)
T1F54 001:047 JLINK_WriteReg(R4, 0x00000000)  returns 0x00 (0000ms, 0656ms total)
T1F54 001:047 JLINK_WriteReg(R5, 0x00000000)  returns 0x00 (0000ms, 0656ms total)
T1F54 001:047 JLINK_WriteReg(R6, 0x00000000)  returns 0x00 (0000ms, 0656ms total)
T1F54 001:047 JLINK_WriteReg(R7, 0x00000000)  returns 0x00 (0000ms, 0656ms total)
T1F54 001:047 JLINK_WriteReg(R8, 0x00000000)  returns 0x00 (0000ms, 0656ms total)
T1F54 001:047 JLINK_WriteReg(R9, 0x20000160)  returns 0x00 (0000ms, 0656ms total)
T1F54 001:047 JLINK_WriteReg(R10, 0x00000000)  returns 0x00 (0000ms, 0656ms total)
T1F54 001:047 JLINK_WriteReg(R11, 0x00000000)  returns 0x00 (0000ms, 0656ms total)
T1F54 001:047 JLINK_WriteReg(R12, 0x00000000)  returns 0x00 (0000ms, 0656ms total)
T1F54 001:047 JLINK_WriteReg(R13 (SP), 0x20000800)  returns 0x00 (0000ms, 0656ms total)
T1F54 001:047 JLINK_WriteReg(R14, 0x20000001)  returns 0x00 (0000ms, 0656ms total)
T1F54 001:048 JLINK_WriteReg(R15 (PC), 0x2000007C)  returns 0x00 (0000ms, 0656ms total)
T1F54 001:048 JLINK_WriteReg(XPSR, 0x01000000)  returns 0x00 (0000ms, 0656ms total)
T1F54 001:048 JLINK_WriteReg(MSP, 0x20000800)  returns 0x00 (0000ms, 0656ms total)
T1F54 001:048 JLINK_WriteReg(PSP, 0x20000800)  returns 0x00 (0000ms, 0656ms total)
T1F54 001:048 JLINK_WriteReg(CFBP, 0x00000000)  returns 0x00 (0000ms, 0656ms total)
T1F54 001:048 JLINK_SetBPEx(Addr = 0x20000000, Type = 0xFFFFFFF2)  returns 0x00000002 (0000ms, 0656ms total)
T1F54 001:048 JLINK_Go() (0001ms, 0657ms total)
T1F54 001:050 JLINK_IsHalted()  returns FALSE (0000ms, 0657ms total)
T1F54 001:201 JLINK_IsHalted() -- CPU_ReadMem(2 bytes @ 0x20000000)  returns TRUE (0004ms, 0661ms total)
T1F54 001:205 JLINK_ReadReg(R15 (PC))  returns 0x20000000 (0000ms, 0657ms total)
T1F54 001:205 JLINK_ClrBPEx(BPHandle = 0x00000002)  returns 0x00 (0000ms, 0657ms total)
T1F54 001:205 JLINK_ReadReg(R0)  returns 0x00000000 (0000ms, 0657ms total)
T1F54 001:257 JLINK_WriteReg(R0, 0x00000001)  returns 0x00 (0000ms, 0657ms total)
T1F54 001:257 JLINK_WriteReg(R1, 0x007A1200)  returns 0x00 (0000ms, 0657ms total)
T1F54 001:257 JLINK_WriteReg(R2, 0x00000001)  returns 0x00 (0000ms, 0657ms total)
T1F54 001:257 JLINK_WriteReg(R3, 0x00000000)  returns 0x00 (0000ms, 0657ms total)
T1F54 001:257 JLINK_WriteReg(R4, 0x00000000)  returns 0x00 (0000ms, 0657ms total)
T1F54 001:257 JLINK_WriteReg(R5, 0x00000000)  returns 0x00 (0000ms, 0657ms total)
T1F54 001:257 JLINK_WriteReg(R6, 0x00000000)  returns 0x00 (0001ms, 0658ms total)
T1F54 001:258 JLINK_WriteReg(R7, 0x00000000)  returns 0x00 (0000ms, 0658ms total)
T1F54 001:258 JLINK_WriteReg(R8, 0x00000000)  returns 0x00 (0000ms, 0658ms total)
T1F54 001:258 JLINK_WriteReg(R9, 0x20000160)  returns 0x00 (0000ms, 0658ms total)
T1F54 001:258 JLINK_WriteReg(R10, 0x00000000)  returns 0x00 (0000ms, 0658ms total)
T1F54 001:258 JLINK_WriteReg(R11, 0x00000000)  returns 0x00 (0000ms, 0658ms total)
T1F54 001:258 JLINK_WriteReg(R12, 0x00000000)  returns 0x00 (0000ms, 0658ms total)
T1F54 001:258 JLINK_WriteReg(R13 (SP), 0x20000800)  returns 0x00 (0000ms, 0658ms total)
T1F54 001:258 JLINK_WriteReg(R14, 0x20000001)  returns 0x00 (0000ms, 0658ms total)
T1F54 001:258 JLINK_WriteReg(R15 (PC), 0x2000006A)  returns 0x00 (0000ms, 0658ms total)
T1F54 001:258 JLINK_WriteReg(XPSR, 0x01000000)  returns 0x00 (0000ms, 0658ms total)
T1F54 001:258 JLINK_WriteReg(MSP, 0x20000800)  returns 0x00 (0000ms, 0658ms total)
T1F54 001:258 JLINK_WriteReg(PSP, 0x20000800)  returns 0x00 (0000ms, 0658ms total)
T1F54 001:258 JLINK_WriteReg(CFBP, 0x00000000)  returns 0x00 (0000ms, 0658ms total)
T1F54 001:258 JLINK_SetBPEx(Addr = 0x20000000, Type = 0xFFFFFFF2)  returns 0x00000003 (0000ms, 0658ms total)
T1F54 001:258 JLINK_Go() (0002ms, 0660ms total)
T1F54 001:260 JLINK_IsHalted() -- CPU_ReadMem(2 bytes @ 0x20000000)  returns TRUE (0005ms, 0665ms total)
T1F54 001:265 JLINK_ReadReg(R15 (PC))  returns 0x20000000 (0000ms, 0660ms total)
T1F54 001:265 JLINK_ClrBPEx(BPHandle = 0x00000003)  returns 0x00 (0000ms, 0660ms total)
T1F54 001:265 JLINK_ReadReg(R0)  returns 0x00000000 (0000ms, 0660ms total)
T1F54 001:276 JLINK_WriteMem(0x20000000, 0x0164 Bytes, ...) -- Data:  00 BE 0A E0 0D 78 2D 06 68 40 08 24 40 00 00 D3 ... -- CPU_WriteMem(356 bytes @ 0x20000000)  returns 0x164 (0005ms, 0665ms total)
T1F54 001:281 JLINK_WriteReg(R0, 0x08000000)  returns 0x00 (0000ms, 0665ms total)
T1F54 001:281 JLINK_WriteReg(R1, 0x007A1200)  returns 0x00 (0000ms, 0665ms total)
T1F54 001:281 JLINK_WriteReg(R2, 0x00000002)  returns 0x00 (0000ms, 0665ms total)
T1F54 001:281 JLINK_WriteReg(R3, 0x00000000)  returns 0x00 (0000ms, 0665ms total)
T1F54 001:281 JLINK_WriteReg(R4, 0x00000000)  returns 0x00 (0000ms, 0665ms total)
T1F54 001:281 JLINK_WriteReg(R5, 0x00000000)  returns 0x00 (0000ms, 0665ms total)
T1F54 001:281 JLINK_WriteReg(R6, 0x00000000)  returns 0x00 (0000ms, 0665ms total)
T1F54 001:281 JLINK_WriteReg(R7, 0x00000000)  returns 0x00 (0000ms, 0665ms total)
T1F54 001:281 JLINK_WriteReg(R8, 0x00000000)  returns 0x00 (0000ms, 0665ms total)
T1F54 001:281 JLINK_WriteReg(R9, 0x20000160)  returns 0x00 (0000ms, 0665ms total)
T1F54 001:281 JLINK_WriteReg(R10, 0x00000000)  returns 0x00 (0000ms, 0665ms total)
T1F54 001:281 JLINK_WriteReg(R11, 0x00000000)  returns 0x00 (0000ms, 0665ms total)
T1F54 001:281 JLINK_WriteReg(R12, 0x00000000)  returns 0x00 (0000ms, 0665ms total)
T1F54 001:281 JLINK_WriteReg(R13 (SP), 0x20000800)  returns 0x00 (0000ms, 0665ms total)
T1F54 001:281 JLINK_WriteReg(R14, 0x20000001)  returns 0x00 (0000ms, 0665ms total)
T1F54 001:281 JLINK_WriteReg(R15 (PC), 0x20000038)  returns 0x00 (0000ms, 0665ms total)
T1F54 001:281 JLINK_WriteReg(XPSR, 0x01000000)  returns 0x00 (0000ms, 0665ms total)
T1F54 001:281 JLINK_WriteReg(MSP, 0x20000800)  returns 0x00 (0000ms, 0665ms total)
T1F54 001:281 JLINK_WriteReg(PSP, 0x20000800)  returns 0x00 (0001ms, 0666ms total)
T1F54 001:282 JLINK_WriteReg(CFBP, 0x00000000)  returns 0x00 (0000ms, 0666ms total)
T1F54 001:282 JLINK_SetBPEx(Addr = 0x20000000, Type = 0xFFFFFFF2) -- CPU_ReadMem(2 bytes @ 0x20000000)  returns 0x00000004 (0000ms, 0666ms total)
T1F54 001:282 JLINK_Go() -- CPU_WriteMem(2 bytes @ 0x20000000) (0003ms, 0669ms total)
T1F54 001:285 JLINK_IsHalted() -- CPU_ReadMem(2 bytes @ 0x20000000)  returns TRUE (0004ms, 0673ms total)
T1F54 001:289 JLINK_ReadReg(R15 (PC))  returns 0x20000000 (0000ms, 0669ms total)
T1F54 001:289 JLINK_ClrBPEx(BPHandle = 0x00000004)  returns 0x00 (0000ms, 0669ms total)
T1F54 001:289 JLINK_ReadReg(R0)  returns 0x00000000 (0000ms, 0669ms total)
T1F54 001:290 JLINK_WriteMem(0x20000164, 0x0400 Bytes, ...) -- Data:  40 10 00 20 DD 89 00 08 65 5E 00 08 E7 89 00 08 ... -- CPU_WriteMem(1024 bytes @ 0x20000164)  returns 0x400 (0014ms, 0683ms total)
T1F54 001:304 JLINK_WriteReg(R0, 0x08000000)  returns 0x00 (0000ms, 0683ms total)
T1F54 001:304 JLINK_WriteReg(R1, 0x00000400)  returns 0x00 (0000ms, 0683ms total)
T1F54 001:304 JLINK_WriteReg(R2, 0x20000164)  returns 0x00 (0000ms, 0683ms total)
T1F54 001:304 JLINK_WriteReg(R3, 0x00000000)  returns 0x00 (0000ms, 0683ms total)
T1F54 001:304 JLINK_WriteReg(R4, 0x00000000)  returns 0x00 (0000ms, 0683ms total)
T1F54 001:304 JLINK_WriteReg(R5, 0x00000000)  returns 0x00 (0000ms, 0683ms total)
T1F54 001:304 JLINK_WriteReg(R6, 0x00000000)  returns 0x00 (0000ms, 0683ms total)
T1F54 001:304 JLINK_WriteReg(R7, 0x00000000)  returns 0x00 (0000ms, 0683ms total)
T1F54 001:304 JLINK_WriteReg(R8, 0x00000000)  returns 0x00 (0000ms, 0683ms total)
T1F54 001:304 JLINK_WriteReg(R9, 0x20000160)  returns 0x00 (0000ms, 0683ms total)
T1F54 001:304 JLINK_WriteReg(R10, 0x00000000)  returns 0x00 (0000ms, 0683ms total)
T1F54 001:304 JLINK_WriteReg(R11, 0x00000000)  returns 0x00 (0000ms, 0683ms total)
T1F54 001:304 JLINK_WriteReg(R12, 0x00000000)  returns 0x00 (0000ms, 0683ms total)
T1F54 001:304 JLINK_WriteReg(R13 (SP), 0x20000800)  returns 0x00 (0000ms, 0683ms total)
T1F54 001:304 JLINK_WriteReg(R14, 0x20000001)  returns 0x00 (0000ms, 0683ms total)
T1F54 001:304 JLINK_WriteReg(R15 (PC), 0x200000F4)  returns 0x00 (0000ms, 0683ms total)
T1F54 001:304 JLINK_WriteReg(XPSR, 0x01000000)  returns 0x00 (0000ms, 0683ms total)
T1F54 001:304 JLINK_WriteReg(MSP, 0x20000800)  returns 0x00 (0000ms, 0683ms total)
T1F54 001:304 JLINK_WriteReg(PSP, 0x20000800)  returns 0x00 (0001ms, 0684ms total)
T1F54 001:305 JLINK_WriteReg(CFBP, 0x00000000)  returns 0x00 (0000ms, 0684ms total)
T1F54 001:305 JLINK_SetBPEx(Addr = 0x20000000, Type = 0xFFFFFFF2)  returns 0x00000005 (0000ms, 0684ms total)
T1F54 001:305 JLINK_Go() (0001ms, 0685ms total)
T1F54 001:306 JLINK_IsHalted()  returns FALSE (0001ms, 0686ms total)
T1F54 001:383 JLINK_IsHalted() -- CPU_ReadMem(2 bytes @ 0x20000000)  returns TRUE (0003ms, 0688ms total)
T1F54 001:386 JLINK_ReadReg(R15 (PC))  returns 0x20000000 (0000ms, 0685ms total)
T1F54 001:386 JLINK_ClrBPEx(BPHandle = 0x00000005)  returns 0x00 (0000ms, 0685ms total)
T1F54 001:386 JLINK_ReadReg(R0)  returns 0x00000000 (0000ms, 0685ms total)
T1F54 001:386 JLINK_WriteMem(0x20000164, 0x0400 Bytes, ...) -- Data:  08 80 A0 7A E1 7A 41 EA 00 20 B7 49 48 80 20 7B ... -- CPU_WriteMem(1024 bytes @ 0x20000164)  returns 0x400 (0013ms, 0698ms total)
T1F54 001:399 JLINK_WriteReg(R0, 0x08000400)  returns 0x00 (0000ms, 0698ms total)
T1F54 001:399 JLINK_WriteReg(R1, 0x00000400)  returns 0x00 (0000ms, 0698ms total)
T1F54 001:399 JLINK_WriteReg(R2, 0x20000164)  returns 0x00 (0000ms, 0698ms total)
T1F54 001:399 JLINK_WriteReg(R3, 0x00000000)  returns 0x00 (0000ms, 0698ms total)
T1F54 001:399 JLINK_WriteReg(R4, 0x00000000)  returns 0x00 (0000ms, 0698ms total)
T1F54 001:399 JLINK_WriteReg(R5, 0x00000000)  returns 0x00 (0000ms, 0698ms total)
T1F54 001:399 JLINK_WriteReg(R6, 0x00000000)  returns 0x00 (0000ms, 0698ms total)
T1F54 001:399 JLINK_WriteReg(R7, 0x00000000)  returns 0x00 (0000ms, 0698ms total)
T1F54 001:399 JLINK_WriteReg(R8, 0x00000000)  returns 0x00 (0000ms, 0698ms total)
T1F54 001:399 JLINK_WriteReg(R9, 0x20000160)  returns 0x00 (0000ms, 0698ms total)
T1F54 001:399 JLINK_WriteReg(R10, 0x00000000)  returns 0x00 (0000ms, 0698ms total)
T1F54 001:399 JLINK_WriteReg(R11, 0x00000000)  returns 0x00 (0000ms, 0698ms total)
T1F54 001:399 JLINK_WriteReg(R12, 0x00000000)  returns 0x00 (0000ms, 0698ms total)
T1F54 001:399 JLINK_WriteReg(R13 (SP), 0x20000800)  returns 0x00 (0000ms, 0698ms total)
T1F54 001:399 JLINK_WriteReg(R14, 0x20000001)  returns 0x00 (0000ms, 0698ms total)
T1F54 001:399 JLINK_WriteReg(R15 (PC), 0x200000F4)  returns 0x00 (0000ms, 0698ms total)
T1F54 001:399 JLINK_WriteReg(XPSR, 0x01000000)  returns 0x00 (0000ms, 0698ms total)
T1F54 001:399 JLINK_WriteReg(MSP, 0x20000800)  returns 0x00 (0000ms, 0698ms total)
T1F54 001:399 JLINK_WriteReg(PSP, 0x20000800)  returns 0x00 (0000ms, 0698ms total)
T1F54 001:399 JLINK_WriteReg(CFBP, 0x00000000)  returns 0x00 (0000ms, 0698ms total)
T1F54 001:399 JLINK_SetBPEx(Addr = 0x20000000, Type = 0xFFFFFFF2)  returns 0x00000006 (0000ms, 0698ms total)
T1F54 001:399 JLINK_Go() (0002ms, 0700ms total)
T1F54 001:401 JLINK_IsHalted()  returns FALSE (0001ms, 0701ms total)
T1F54 001:425 JLINK_IsHalted()  returns FALSE (0000ms, 0700ms total)
T1F54 001:427 JLINK_IsHalted()  returns FALSE (0000ms, 0700ms total)
T1F54 001:429 JLINK_IsHalted()  returns FALSE (0000ms, 0700ms total)
T1F54 001:431 JLINK_IsHalted()  returns FALSE (0000ms, 0700ms total)
T1F54 001:433 JLINK_IsHalted() -- CPU_ReadMem(2 bytes @ 0x20000000)  returns TRUE (0004ms, 0704ms total)
T1F54 001:437 JLINK_ReadReg(R15 (PC))  returns 0x20000000 (0000ms, 0700ms total)
T1F54 001:437 JLINK_ClrBPEx(BPHandle = 0x00000006)  returns 0x00 (0000ms, 0700ms total)
T1F54 001:437 JLINK_ReadReg(R0)  returns 0x00000000 (0000ms, 0700ms total)
T1F54 001:437 JLINK_WriteMem(0x20000164, 0x0400 Bytes, ...) -- Data:  10 BD 2D E9 FC 5F 04 46 0E 46 17 46 98 46 DD E9 ... -- CPU_WriteMem(1024 bytes @ 0x20000164)  returns 0x400 (0012ms, 0712ms total)
T1F54 001:449 JLINK_WriteReg(R0, 0x08000800)  returns 0x00 (0000ms, 0712ms total)
T1F54 001:449 JLINK_WriteReg(R1, 0x00000400)  returns 0x00 (0000ms, 0712ms total)
T1F54 001:449 JLINK_WriteReg(R2, 0x20000164)  returns 0x00 (0000ms, 0712ms total)
T1F54 001:449 JLINK_WriteReg(R3, 0x00000000)  returns 0x00 (0001ms, 0713ms total)
T1F54 001:450 JLINK_WriteReg(R4, 0x00000000)  returns 0x00 (0000ms, 0713ms total)
T1F54 001:450 JLINK_WriteReg(R5, 0x00000000)  returns 0x00 (0000ms, 0713ms total)
T1F54 001:450 JLINK_WriteReg(R6, 0x00000000)  returns 0x00 (0000ms, 0713ms total)
T1F54 001:450 JLINK_WriteReg(R7, 0x00000000)  returns 0x00 (0000ms, 0713ms total)
T1F54 001:450 JLINK_WriteReg(R8, 0x00000000)  returns 0x00 (0000ms, 0713ms total)
T1F54 001:450 JLINK_WriteReg(R9, 0x20000160)  returns 0x00 (0000ms, 0713ms total)
T1F54 001:450 JLINK_WriteReg(R10, 0x00000000)  returns 0x00 (0000ms, 0713ms total)
T1F54 001:450 JLINK_WriteReg(R11, 0x00000000)  returns 0x00 (0000ms, 0713ms total)
T1F54 001:450 JLINK_WriteReg(R12, 0x00000000)  returns 0x00 (0000ms, 0713ms total)
T1F54 001:450 JLINK_WriteReg(R13 (SP), 0x20000800)  returns 0x00 (0000ms, 0713ms total)
T1F54 001:450 JLINK_WriteReg(R14, 0x20000001)  returns 0x00 (0000ms, 0713ms total)
T1F54 001:450 JLINK_WriteReg(R15 (PC), 0x200000F4)  returns 0x00 (0000ms, 0713ms total)
T1F54 001:450 JLINK_WriteReg(XPSR, 0x01000000)  returns 0x00 (0000ms, 0713ms total)
T1F54 001:450 JLINK_WriteReg(MSP, 0x20000800)  returns 0x00 (0000ms, 0713ms total)
T1F54 001:450 JLINK_WriteReg(PSP, 0x20000800)  returns 0x00 (0000ms, 0713ms total)
T1F54 001:450 JLINK_WriteReg(CFBP, 0x00000000)  returns 0x00 (0000ms, 0713ms total)
T1F54 001:450 JLINK_SetBPEx(Addr = 0x20000000, Type = 0xFFFFFFF2)  returns 0x00000007 (0000ms, 0713ms total)
T1F54 001:450 JLINK_Go() (0002ms, 0715ms total)
T1F54 001:452 JLINK_IsHalted()  returns FALSE (0000ms, 0715ms total)
T1F54 001:456 JLINK_IsHalted()  returns FALSE (0000ms, 0715ms total)
T1F54 001:458 JLINK_IsHalted()  returns FALSE (0001ms, 0716ms total)
T1F54 001:461 JLINK_IsHalted()  returns FALSE (0000ms, 0715ms total)
T1F54 001:463 JLINK_IsHalted()  returns FALSE (0000ms, 0715ms total)
T1F54 001:465 JLINK_IsHalted()  returns FALSE (0000ms, 0715ms total)
T1F54 001:467 JLINK_IsHalted()  returns FALSE (0000ms, 0715ms total)
T1F54 001:469 JLINK_IsHalted()  returns FALSE (0000ms, 0715ms total)
T1F54 001:471 JLINK_IsHalted()  returns FALSE (0001ms, 0716ms total)
T1F54 001:474 JLINK_IsHalted()  returns FALSE (0000ms, 0715ms total)
T1F54 001:476 JLINK_IsHalted()  returns FALSE (0000ms, 0715ms total)
T1F54 001:478 JLINK_IsHalted()  returns FALSE (0000ms, 0715ms total)
T1F54 001:480 JLINK_IsHalted()  returns FALSE (0000ms, 0715ms total)
T1F54 001:482 JLINK_IsHalted()  returns FALSE (0001ms, 0716ms total)
T1F54 001:485 JLINK_IsHalted() -- CPU_ReadMem(2 bytes @ 0x20000000)  returns TRUE (0004ms, 0719ms total)
T1F54 001:489 JLINK_ReadReg(R15 (PC))  returns 0x20000000 (0000ms, 0715ms total)
T1F54 001:489 JLINK_ClrBPEx(BPHandle = 0x00000007)  returns 0x00 (0000ms, 0715ms total)
T1F54 001:489 JLINK_ReadReg(R0)  returns 0x00000000 (0000ms, 0715ms total)
T1F54 001:490 JLINK_WriteMem(0x20000164, 0x0400 Bytes, ...) -- Data:  09 5C 31 44 CE B2 41 1C C8 B2 A8 42 F6 DB 28 46 ... -- CPU_WriteMem(1024 bytes @ 0x20000164)  returns 0x400 (0013ms, 0728ms total)
T1F54 001:503 JLINK_WriteReg(R0, 0x08000C00)  returns 0x00 (0000ms, 0728ms total)
T1F54 001:503 JLINK_WriteReg(R1, 0x00000400)  returns 0x00 (0000ms, 0728ms total)
T1F54 001:503 JLINK_WriteReg(R2, 0x20000164)  returns 0x00 (0000ms, 0728ms total)
T1F54 001:503 JLINK_WriteReg(R3, 0x00000000)  returns 0x00 (0000ms, 0728ms total)
T1F54 001:503 JLINK_WriteReg(R4, 0x00000000)  returns 0x00 (0000ms, 0728ms total)
T1F54 001:503 JLINK_WriteReg(R5, 0x00000000)  returns 0x00 (0000ms, 0728ms total)
T1F54 001:503 JLINK_WriteReg(R6, 0x00000000)  returns 0x00 (0000ms, 0728ms total)
T1F54 001:503 JLINK_WriteReg(R7, 0x00000000)  returns 0x00 (0000ms, 0728ms total)
T1F54 001:503 JLINK_WriteReg(R8, 0x00000000)  returns 0x00 (0000ms, 0728ms total)
T1F54 001:503 JLINK_WriteReg(R9, 0x20000160)  returns 0x00 (0000ms, 0728ms total)
T1F54 001:503 JLINK_WriteReg(R10, 0x00000000)  returns 0x00 (0000ms, 0728ms total)
T1F54 001:503 JLINK_WriteReg(R11, 0x00000000)  returns 0x00 (0000ms, 0728ms total)
T1F54 001:503 JLINK_WriteReg(R12, 0x00000000)  returns 0x00 (0000ms, 0728ms total)
T1F54 001:503 JLINK_WriteReg(R13 (SP), 0x20000800)  returns 0x00 (0000ms, 0728ms total)
T1F54 001:503 JLINK_WriteReg(R14, 0x20000001)  returns 0x00 (0000ms, 0728ms total)
T1F54 001:503 JLINK_WriteReg(R15 (PC), 0x200000F4)  returns 0x00 (0000ms, 0728ms total)
T1F54 001:503 JLINK_WriteReg(XPSR, 0x01000000)  returns 0x00 (0000ms, 0728ms total)
T1F54 001:503 JLINK_WriteReg(MSP, 0x20000800)  returns 0x00 (0000ms, 0728ms total)
T1F54 001:503 JLINK_WriteReg(PSP, 0x20000800)  returns 0x00 (0000ms, 0728ms total)
T1F54 001:503 JLINK_WriteReg(CFBP, 0x00000000)  returns 0x00 (0000ms, 0728ms total)
T1F54 001:503 JLINK_SetBPEx(Addr = 0x20000000, Type = 0xFFFFFFF2)  returns 0x00000008 (0001ms, 0729ms total)
T1F54 001:504 JLINK_Go() (0002ms, 0731ms total)
T1F54 001:506 JLINK_IsHalted()  returns FALSE (0001ms, 0732ms total)
T1F54 001:508 JLINK_IsHalted()  returns FALSE (0000ms, 0731ms total)
T1F54 001:510 JLINK_IsHalted()  returns FALSE (0000ms, 0731ms total)
T1F54 001:564 JLINK_IsHalted() -- CPU_ReadMem(2 bytes @ 0x20000000)  returns TRUE (0004ms, 0735ms total)
T1F54 001:568 JLINK_ReadReg(R15 (PC))  returns 0x20000000 (0000ms, 0731ms total)
T1F54 001:568 JLINK_ClrBPEx(BPHandle = 0x00000008)  returns 0x00 (0000ms, 0731ms total)
T1F54 001:568 JLINK_ReadReg(R0)  returns 0x00000000 (0000ms, 0731ms total)
T1F54 001:570 JLINK_WriteMem(0x20000164, 0x0400 Bytes, ...) -- Data:  F8 8F 2D E9 FE 4F 04 46 0E 46 17 46 98 46 DD E9 ... -- CPU_WriteMem(1024 bytes @ 0x20000164)  returns 0x400 (0013ms, 0744ms total)
T1F54 001:583 JLINK_WriteReg(R0, 0x08001000)  returns 0x00 (0000ms, 0744ms total)
T1F54 001:583 JLINK_WriteReg(R1, 0x00000400)  returns 0x00 (0000ms, 0744ms total)
T1F54 001:583 JLINK_WriteReg(R2, 0x20000164)  returns 0x00 (0000ms, 0744ms total)
T1F54 001:583 JLINK_WriteReg(R3, 0x00000000)  returns 0x00 (0000ms, 0744ms total)
T1F54 001:583 JLINK_WriteReg(R4, 0x00000000)  returns 0x00 (0000ms, 0744ms total)
T1F54 001:583 JLINK_WriteReg(R5, 0x00000000)  returns 0x00 (0000ms, 0744ms total)
T1F54 001:583 JLINK_WriteReg(R6, 0x00000000)  returns 0x00 (0000ms, 0744ms total)
T1F54 001:583 JLINK_WriteReg(R7, 0x00000000)  returns 0x00 (0000ms, 0744ms total)
T1F54 001:583 JLINK_WriteReg(R8, 0x00000000)  returns 0x00 (0000ms, 0744ms total)
T1F54 001:583 JLINK_WriteReg(R9, 0x20000160)  returns 0x00 (0000ms, 0744ms total)
T1F54 001:583 JLINK_WriteReg(R10, 0x00000000)  returns 0x00 (0000ms, 0744ms total)
T1F54 001:583 JLINK_WriteReg(R11, 0x00000000)  returns 0x00 (0000ms, 0744ms total)
T1F54 001:583 JLINK_WriteReg(R12, 0x00000000)  returns 0x00 (0000ms, 0744ms total)
T1F54 001:583 JLINK_WriteReg(R13 (SP), 0x20000800)  returns 0x00 (0000ms, 0744ms total)
T1F54 001:583 JLINK_WriteReg(R14, 0x20000001)  returns 0x00 (0000ms, 0744ms total)
T1F54 001:583 JLINK_WriteReg(R15 (PC), 0x200000F4)  returns 0x00 (0000ms, 0744ms total)
T1F54 001:583 JLINK_WriteReg(XPSR, 0x01000000)  returns 0x00 (0000ms, 0744ms total)
T1F54 001:583 JLINK_WriteReg(MSP, 0x20000800)  returns 0x00 (0000ms, 0744ms total)
T1F54 001:583 JLINK_WriteReg(PSP, 0x20000800)  returns 0x00 (0001ms, 0745ms total)
T1F54 001:584 JLINK_WriteReg(CFBP, 0x00000000)  returns 0x00 (0000ms, 0745ms total)
T1F54 001:584 JLINK_SetBPEx(Addr = 0x20000000, Type = 0xFFFFFFF2)  returns 0x00000009 (0000ms, 0745ms total)
T1F54 001:584 JLINK_Go() (0001ms, 0746ms total)
T1F54 001:585 JLINK_IsHalted()  returns FALSE (0001ms, 0747ms total)
T1F54 001:588 JLINK_IsHalted()  returns FALSE (0000ms, 0746ms total)
T1F54 001:590 JLINK_IsHalted()  returns FALSE (0000ms, 0746ms total)
T1F54 001:592 JLINK_IsHalted()  returns FALSE (0000ms, 0746ms total)
T1F54 001:594 JLINK_IsHalted()  returns FALSE (0000ms, 0746ms total)
T1F54 001:596 JLINK_IsHalted()  returns FALSE (0000ms, 0746ms total)
T1F54 001:598 JLINK_IsHalted()  returns FALSE (0000ms, 0746ms total)
T1F54 001:600 JLINK_IsHalted()  returns FALSE (0000ms, 0746ms total)
T1F54 001:602 JLINK_IsHalted()  returns FALSE (0001ms, 0747ms total)
T1F54 001:604 JLINK_IsHalted()  returns FALSE (0001ms, 0747ms total)
T1F54 001:606 JLINK_IsHalted()  returns FALSE (0001ms, 0747ms total)
T1F54 001:608 JLINK_IsHalted()  returns FALSE (0001ms, 0747ms total)
T1F54 001:610 JLINK_IsHalted()  returns FALSE (0001ms, 0747ms total)
T1F54 001:612 JLINK_IsHalted()  returns FALSE (0001ms, 0747ms total)
T1F54 001:614 JLINK_IsHalted()  returns FALSE (0001ms, 0747ms total)
T1F54 001:616 JLINK_IsHalted()  returns FALSE (0001ms, 0747ms total)
T1F54 001:660 JLINK_IsHalted() -- CPU_ReadMem(2 bytes @ 0x20000000)  returns TRUE (0004ms, 0750ms total)
T1F54 001:664 JLINK_ReadReg(R15 (PC))  returns 0x20000000 (0000ms, 0746ms total)
T1F54 001:664 JLINK_ClrBPEx(BPHandle = 0x00000009)  returns 0x00 (0000ms, 0746ms total)
T1F54 001:664 JLINK_ReadReg(R0)  returns 0x00000000 (0000ms, 0746ms total)
T1F54 001:664 JLINK_WriteMem(0x20000164, 0x0400 Bytes, ...) -- Data:  20 46 FF F7 D3 FC DC E0 A0 7A 68 B3 00 20 A0 72 ... -- CPU_WriteMem(1024 bytes @ 0x20000164)  returns 0x400 (0014ms, 0760ms total)
T1F54 001:678 JLINK_WriteReg(R0, 0x08001400)  returns 0x00 (0000ms, 0760ms total)
T1F54 001:678 JLINK_WriteReg(R1, 0x00000400)  returns 0x00 (0000ms, 0760ms total)
T1F54 001:678 JLINK_WriteReg(R2, 0x20000164)  returns 0x00 (0000ms, 0760ms total)
T1F54 001:678 JLINK_WriteReg(R3, 0x00000000)  returns 0x00 (0000ms, 0760ms total)
T1F54 001:678 JLINK_WriteReg(R4, 0x00000000)  returns 0x00 (0000ms, 0760ms total)
T1F54 001:678 JLINK_WriteReg(R5, 0x00000000)  returns 0x00 (0000ms, 0760ms total)
T1F54 001:678 JLINK_WriteReg(R6, 0x00000000)  returns 0x00 (0000ms, 0760ms total)
T1F54 001:678 JLINK_WriteReg(R7, 0x00000000)  returns 0x00 (0000ms, 0760ms total)
T1F54 001:678 JLINK_WriteReg(R8, 0x00000000)  returns 0x00 (0000ms, 0760ms total)
T1F54 001:678 JLINK_WriteReg(R9, 0x20000160)  returns 0x00 (0000ms, 0760ms total)
T1F54 001:678 JLINK_WriteReg(R10, 0x00000000)  returns 0x00 (0000ms, 0760ms total)
T1F54 001:678 JLINK_WriteReg(R11, 0x00000000)  returns 0x00 (0000ms, 0760ms total)
T1F54 001:678 JLINK_WriteReg(R12, 0x00000000)  returns 0x00 (0000ms, 0760ms total)
T1F54 001:678 JLINK_WriteReg(R13 (SP), 0x20000800)  returns 0x00 (0000ms, 0760ms total)
T1F54 001:678 JLINK_WriteReg(R14, 0x20000001)  returns 0x00 (0000ms, 0760ms total)
T1F54 001:678 JLINK_WriteReg(R15 (PC), 0x200000F4)  returns 0x00 (0000ms, 0760ms total)
T1F54 001:678 JLINK_WriteReg(XPSR, 0x01000000)  returns 0x00 (0000ms, 0760ms total)
T1F54 001:678 JLINK_WriteReg(MSP, 0x20000800)  returns 0x00 (0000ms, 0760ms total)
T1F54 001:678 JLINK_WriteReg(PSP, 0x20000800)  returns 0x00 (0000ms, 0760ms total)
T1F54 001:678 JLINK_WriteReg(CFBP, 0x00000000)  returns 0x00 (0000ms, 0760ms total)
T1F54 001:678 JLINK_SetBPEx(Addr = 0x20000000, Type = 0xFFFFFFF2)  returns 0x0000000A (0000ms, 0760ms total)
T1F54 001:678 JLINK_Go() (0002ms, 0762ms total)
T1F54 001:680 JLINK_IsHalted()  returns FALSE (0001ms, 0763ms total)
T1F54 001:685 JLINK_IsHalted()  returns FALSE (0000ms, 0762ms total)
T1F54 001:687 JLINK_IsHalted()  returns FALSE (0001ms, 0763ms total)
T1F54 001:690 JLINK_IsHalted()  returns FALSE (0000ms, 0762ms total)
T1F54 001:692 JLINK_IsHalted()  returns FALSE (0000ms, 0762ms total)
T1F54 001:694 JLINK_IsHalted()  returns FALSE (0000ms, 0762ms total)
T1F54 001:696 JLINK_IsHalted()  returns FALSE (0000ms, 0762ms total)
T1F54 001:698 JLINK_IsHalted()  returns FALSE (0000ms, 0762ms total)
T1F54 001:700 JLINK_IsHalted()  returns FALSE (0001ms, 0763ms total)
T1F54 001:702 JLINK_IsHalted()  returns FALSE (0001ms, 0763ms total)
T1F54 001:705 JLINK_IsHalted()  returns FALSE (0001ms, 0763ms total)
T1F54 001:707 JLINK_IsHalted()  returns FALSE (0000ms, 0762ms total)
T1F54 001:709 JLINK_IsHalted()  returns FALSE (0000ms, 0762ms total)
T1F54 001:710 JLINK_IsHalted()  returns FALSE (0001ms, 0763ms total)
T1F54 001:712 JLINK_IsHalted() -- CPU_ReadMem(2 bytes @ 0x20000000)  returns TRUE (0004ms, 0766ms total)
T1F54 001:716 JLINK_ReadReg(R15 (PC))  returns 0x20000000 (0000ms, 0762ms total)
T1F54 001:716 JLINK_ClrBPEx(BPHandle = 0x0000000A)  returns 0x00 (0000ms, 0762ms total)
T1F54 001:716 JLINK_ReadReg(R0)  returns 0x00000000 (0000ms, 0762ms total)
T1F54 001:717 JLINK_WriteMem(0x20000164, 0x0400 Bytes, ...) -- Data:  1B AB 07 C3 12 AA 1B A9 68 46 08 F0 92 FA 9D E8 ... -- CPU_WriteMem(1024 bytes @ 0x20000164)  returns 0x400 (0013ms, 0775ms total)
T1F54 001:730 JLINK_WriteReg(R0, 0x08001800)  returns 0x00 (0000ms, 0775ms total)
T1F54 001:730 JLINK_WriteReg(R1, 0x00000400)  returns 0x00 (0000ms, 0775ms total)
T1F54 001:730 JLINK_WriteReg(R2, 0x20000164)  returns 0x00 (0000ms, 0775ms total)
T1F54 001:730 JLINK_WriteReg(R3, 0x00000000)  returns 0x00 (0000ms, 0775ms total)
T1F54 001:730 JLINK_WriteReg(R4, 0x00000000)  returns 0x00 (0000ms, 0775ms total)
T1F54 001:730 JLINK_WriteReg(R5, 0x00000000)  returns 0x00 (0000ms, 0775ms total)
T1F54 001:730 JLINK_WriteReg(R6, 0x00000000)  returns 0x00 (0000ms, 0775ms total)
T1F54 001:730 JLINK_WriteReg(R7, 0x00000000)  returns 0x00 (0000ms, 0775ms total)
T1F54 001:730 JLINK_WriteReg(R8, 0x00000000)  returns 0x00 (0000ms, 0775ms total)
T1F54 001:730 JLINK_WriteReg(R9, 0x20000160)  returns 0x00 (0000ms, 0775ms total)
T1F54 001:730 JLINK_WriteReg(R10, 0x00000000)  returns 0x00 (0000ms, 0775ms total)
T1F54 001:730 JLINK_WriteReg(R11, 0x00000000)  returns 0x00 (0000ms, 0775ms total)
T1F54 001:730 JLINK_WriteReg(R12, 0x00000000)  returns 0x00 (0000ms, 0775ms total)
T1F54 001:730 JLINK_WriteReg(R13 (SP), 0x20000800)  returns 0x00 (0000ms, 0775ms total)
T1F54 001:730 JLINK_WriteReg(R14, 0x20000001)  returns 0x00 (0000ms, 0775ms total)
T1F54 001:730 JLINK_WriteReg(R15 (PC), 0x200000F4)  returns 0x00 (0000ms, 0775ms total)
T1F54 001:730 JLINK_WriteReg(XPSR, 0x01000000)  returns 0x00 (0000ms, 0775ms total)
T1F54 001:730 JLINK_WriteReg(MSP, 0x20000800)  returns 0x00 (0000ms, 0775ms total)
T1F54 001:730 JLINK_WriteReg(PSP, 0x20000800)  returns 0x00 (0000ms, 0775ms total)
T1F54 001:730 JLINK_WriteReg(CFBP, 0x00000000)  returns 0x00 (0000ms, 0775ms total)
T1F54 001:730 JLINK_SetBPEx(Addr = 0x20000000, Type = 0xFFFFFFF2)  returns 0x0000000B (0000ms, 0775ms total)
T1F54 001:730 JLINK_Go() (0002ms, 0777ms total)
T1F54 001:732 JLINK_IsHalted()  returns FALSE (0001ms, 0778ms total)
T1F54 001:764 JLINK_IsHalted() -- CPU_ReadMem(2 bytes @ 0x20000000)  returns TRUE (0004ms, 0781ms total)
T1F54 001:768 JLINK_ReadReg(R15 (PC))  returns 0x20000000 (0000ms, 0777ms total)
T1F54 001:768 JLINK_ClrBPEx(BPHandle = 0x0000000B)  returns 0x00 (0000ms, 0777ms total)
T1F54 001:768 JLINK_ReadReg(R0)  returns 0x00000000 (0000ms, 0777ms total)
T1F54 001:769 JLINK_WriteMem(0x20000164, 0x0400 Bytes, ...) -- Data:  82 00 36 4A 01 F0 C6 FB 01 A9 41 F8 24 00 60 1C ... -- CPU_WriteMem(1024 bytes @ 0x20000164)  returns 0x400 (0013ms, 0790ms total)
T1F54 001:782 JLINK_WriteReg(R0, 0x08001C00)  returns 0x00 (0000ms, 0790ms total)
T1F54 001:782 JLINK_WriteReg(R1, 0x00000400)  returns 0x00 (0000ms, 0790ms total)
T1F54 001:782 JLINK_WriteReg(R2, 0x20000164)  returns 0x00 (0000ms, 0790ms total)
T1F54 001:782 JLINK_WriteReg(R3, 0x00000000)  returns 0x00 (0000ms, 0790ms total)
T1F54 001:782 JLINK_WriteReg(R4, 0x00000000)  returns 0x00 (0000ms, 0790ms total)
T1F54 001:782 JLINK_WriteReg(R5, 0x00000000)  returns 0x00 (0000ms, 0790ms total)
T1F54 001:782 JLINK_WriteReg(R6, 0x00000000)  returns 0x00 (0000ms, 0790ms total)
T1F54 001:782 JLINK_WriteReg(R7, 0x00000000)  returns 0x00 (0000ms, 0790ms total)
T1F54 001:782 JLINK_WriteReg(R8, 0x00000000)  returns 0x00 (0000ms, 0790ms total)
T1F54 001:782 JLINK_WriteReg(R9, 0x20000160)  returns 0x00 (0000ms, 0790ms total)
T1F54 001:782 JLINK_WriteReg(R10, 0x00000000)  returns 0x00 (0000ms, 0790ms total)
T1F54 001:782 JLINK_WriteReg(R11, 0x00000000)  returns 0x00 (0000ms, 0790ms total)
T1F54 001:782 JLINK_WriteReg(R12, 0x00000000)  returns 0x00 (0000ms, 0790ms total)
T1F54 001:782 JLINK_WriteReg(R13 (SP), 0x20000800)  returns 0x00 (0000ms, 0790ms total)
T1F54 001:782 JLINK_WriteReg(R14, 0x20000001)  returns 0x00 (0000ms, 0790ms total)
T1F54 001:782 JLINK_WriteReg(R15 (PC), 0x200000F4)  returns 0x00 (0000ms, 0790ms total)
T1F54 001:782 JLINK_WriteReg(XPSR, 0x01000000)  returns 0x00 (0000ms, 0790ms total)
T1F54 001:782 JLINK_WriteReg(MSP, 0x20000800)  returns 0x00 (0000ms, 0790ms total)
T1F54 001:782 JLINK_WriteReg(PSP, 0x20000800)  returns 0x00 (0000ms, 0790ms total)
T1F54 001:782 JLINK_WriteReg(CFBP, 0x00000000)  returns 0x00 (0000ms, 0790ms total)
T1F54 001:782 JLINK_SetBPEx(Addr = 0x20000000, Type = 0xFFFFFFF2)  returns 0x0000000C (0000ms, 0790ms total)
T1F54 001:782 JLINK_Go() (0002ms, 0792ms total)
T1F54 001:784 JLINK_IsHalted()  returns FALSE (0000ms, 0792ms total)
T1F54 001:786 JLINK_IsHalted()  returns FALSE (0001ms, 0793ms total)
T1F54 001:789 JLINK_IsHalted()  returns FALSE (0001ms, 0793ms total)
T1F54 001:792 JLINK_IsHalted()  returns FALSE (0000ms, 0792ms total)
T1F54 001:794 JLINK_IsHalted()  returns FALSE (0000ms, 0792ms total)
T1F54 001:796 JLINK_IsHalted()  returns FALSE (0000ms, 0792ms total)
T1F54 001:798 JLINK_IsHalted()  returns FALSE (0000ms, 0792ms total)
T1F54 001:800 JLINK_IsHalted()  returns FALSE (0001ms, 0793ms total)
T1F54 001:802 JLINK_IsHalted()  returns FALSE (0001ms, 0793ms total)
T1F54 001:805 JLINK_IsHalted()  returns FALSE (0001ms, 0793ms total)
T1F54 001:807 JLINK_IsHalted()  returns FALSE (0001ms, 0793ms total)
T1F54 001:813 JLINK_IsHalted()  returns FALSE (0000ms, 0792ms total)
T1F54 001:815 JLINK_IsHalted() -- CPU_ReadMem(2 bytes @ 0x20000000)  returns TRUE (0004ms, 0796ms total)
T1F54 001:819 JLINK_ReadReg(R15 (PC))  returns 0x20000000 (0000ms, 0792ms total)
T1F54 001:819 JLINK_ClrBPEx(BPHandle = 0x0000000C)  returns 0x00 (0000ms, 0792ms total)
T1F54 001:819 JLINK_ReadReg(R0)  returns 0x00000000 (0000ms, 0792ms total)
T1F54 001:820 JLINK_WriteMem(0x20000164, 0x0400 Bytes, ...) -- Data:  03 A8 07 F0 0D FD 04 F1 30 02 03 A9 40 46 07 F0 ... -- CPU_WriteMem(1024 bytes @ 0x20000164)  returns 0x400 (0014ms, 0806ms total)
T1F54 001:834 JLINK_WriteReg(R0, 0x08002000)  returns 0x00 (0000ms, 0806ms total)
T1F54 001:834 JLINK_WriteReg(R1, 0x00000400)  returns 0x00 (0000ms, 0806ms total)
T1F54 001:834 JLINK_WriteReg(R2, 0x20000164)  returns 0x00 (0000ms, 0806ms total)
T1F54 001:834 JLINK_WriteReg(R3, 0x00000000)  returns 0x00 (0000ms, 0806ms total)
T1F54 001:834 JLINK_WriteReg(R4, 0x00000000)  returns 0x00 (0000ms, 0806ms total)
T1F54 001:834 JLINK_WriteReg(R5, 0x00000000)  returns 0x00 (0000ms, 0806ms total)
T1F54 001:834 JLINK_WriteReg(R6, 0x00000000)  returns 0x00 (0000ms, 0806ms total)
T1F54 001:834 JLINK_WriteReg(R7, 0x00000000)  returns 0x00 (0000ms, 0806ms total)
T1F54 001:834 JLINK_WriteReg(R8, 0x00000000)  returns 0x00 (0000ms, 0806ms total)
T1F54 001:834 JLINK_WriteReg(R9, 0x20000160)  returns 0x00 (0000ms, 0806ms total)
T1F54 001:834 JLINK_WriteReg(R10, 0x00000000)  returns 0x00 (0000ms, 0806ms total)
T1F54 001:834 JLINK_WriteReg(R11, 0x00000000)  returns 0x00 (0000ms, 0806ms total)
T1F54 001:834 JLINK_WriteReg(R12, 0x00000000)  returns 0x00 (0000ms, 0806ms total)
T1F54 001:834 JLINK_WriteReg(R13 (SP), 0x20000800)  returns 0x00 (0000ms, 0806ms total)
T1F54 001:834 JLINK_WriteReg(R14, 0x20000001)  returns 0x00 (0000ms, 0806ms total)
T1F54 001:834 JLINK_WriteReg(R15 (PC), 0x200000F4)  returns 0x00 (0000ms, 0806ms total)
T1F54 001:834 JLINK_WriteReg(XPSR, 0x01000000)  returns 0x00 (0000ms, 0806ms total)
T1F54 001:834 JLINK_WriteReg(MSP, 0x20000800)  returns 0x00 (0000ms, 0806ms total)
T1F54 001:834 JLINK_WriteReg(PSP, 0x20000800)  returns 0x00 (0001ms, 0807ms total)
T1F54 001:835 JLINK_WriteReg(CFBP, 0x00000000)  returns 0x00 (0000ms, 0807ms total)
T1F54 001:835 JLINK_SetBPEx(Addr = 0x20000000, Type = 0xFFFFFFF2)  returns 0x0000000D (0000ms, 0807ms total)
T1F54 001:835 JLINK_Go() (0001ms, 0808ms total)
T1F54 001:836 JLINK_IsHalted()  returns FALSE (0001ms, 0809ms total)
T1F54 001:839 JLINK_IsHalted()  returns FALSE (0000ms, 0808ms total)
T1F54 001:881 JLINK_IsHalted() -- CPU_ReadMem(2 bytes @ 0x20000000)  returns TRUE (0003ms, 0811ms total)
T1F54 001:884 JLINK_ReadReg(R15 (PC))  returns 0x20000000 (0000ms, 0808ms total)
T1F54 001:884 JLINK_ClrBPEx(BPHandle = 0x0000000D)  returns 0x00 (0001ms, 0809ms total)
T1F54 001:885 JLINK_ReadReg(R0)  returns 0x00000000 (0000ms, 0809ms total)
T1F54 001:885 JLINK_WriteMem(0x20000164, 0x0400 Bytes, ...) -- Data:  CA 80 02 89 0A 81 42 89 4A 81 70 47 83 C0 CA A1 ... -- CPU_WriteMem(1024 bytes @ 0x20000164)  returns 0x400 (0014ms, 0823ms total)
T1F54 001:899 JLINK_WriteReg(R0, 0x08002400)  returns 0x00 (0000ms, 0823ms total)
T1F54 001:899 JLINK_WriteReg(R1, 0x00000400)  returns 0x00 (0000ms, 0823ms total)
T1F54 001:899 JLINK_WriteReg(R2, 0x20000164)  returns 0x00 (0000ms, 0823ms total)
T1F54 001:899 JLINK_WriteReg(R3, 0x00000000)  returns 0x00 (0000ms, 0823ms total)
T1F54 001:899 JLINK_WriteReg(R4, 0x00000000)  returns 0x00 (0000ms, 0823ms total)
T1F54 001:899 JLINK_WriteReg(R5, 0x00000000)  returns 0x00 (0000ms, 0823ms total)
T1F54 001:899 JLINK_WriteReg(R6, 0x00000000)  returns 0x00 (0000ms, 0823ms total)
T1F54 001:899 JLINK_WriteReg(R7, 0x00000000)  returns 0x00 (0000ms, 0823ms total)
T1F54 001:899 JLINK_WriteReg(R8, 0x00000000)  returns 0x00 (0000ms, 0823ms total)
T1F54 001:899 JLINK_WriteReg(R9, 0x20000160)  returns 0x00 (0000ms, 0823ms total)
T1F54 001:899 JLINK_WriteReg(R10, 0x00000000)  returns 0x00 (0000ms, 0823ms total)
T1F54 001:899 JLINK_WriteReg(R11, 0x00000000)  returns 0x00 (0000ms, 0823ms total)
T1F54 001:899 JLINK_WriteReg(R12, 0x00000000)  returns 0x00 (0000ms, 0823ms total)
T1F54 001:899 JLINK_WriteReg(R13 (SP), 0x20000800)  returns 0x00 (0000ms, 0823ms total)
T1F54 001:899 JLINK_WriteReg(R14, 0x20000001)  returns 0x00 (0000ms, 0823ms total)
T1F54 001:899 JLINK_WriteReg(R15 (PC), 0x200000F4)  returns 0x00 (0000ms, 0823ms total)
T1F54 001:899 JLINK_WriteReg(XPSR, 0x01000000)  returns 0x00 (0000ms, 0823ms total)
T1F54 001:899 JLINK_WriteReg(MSP, 0x20000800)  returns 0x00 (0000ms, 0823ms total)
T1F54 001:899 JLINK_WriteReg(PSP, 0x20000800)  returns 0x00 (0000ms, 0823ms total)
T1F54 001:899 JLINK_WriteReg(CFBP, 0x00000000)  returns 0x00 (0000ms, 0823ms total)
T1F54 001:899 JLINK_SetBPEx(Addr = 0x20000000, Type = 0xFFFFFFF2)  returns 0x0000000E (0000ms, 0823ms total)
T1F54 001:899 JLINK_Go() (0002ms, 0825ms total)
T1F54 001:901 JLINK_IsHalted()  returns FALSE (0001ms, 0826ms total)
T1F54 001:904 JLINK_IsHalted()  returns FALSE (0001ms, 0826ms total)
T1F54 001:906 JLINK_IsHalted()  returns FALSE (0000ms, 0825ms total)
T1F54 001:908 JLINK_IsHalted()  returns FALSE (0000ms, 0825ms total)
T1F54 001:910 JLINK_IsHalted()  returns FALSE (0000ms, 0825ms total)
T1F54 001:911 JLINK_IsHalted()  returns FALSE (0001ms, 0826ms total)
T1F54 001:913 JLINK_IsHalted()  returns FALSE (0001ms, 0826ms total)
T1F54 001:915 JLINK_IsHalted()  returns FALSE (0001ms, 0826ms total)
T1F54 001:917 JLINK_IsHalted()  returns FALSE (0000ms, 0825ms total)
T1F54 001:920 JLINK_IsHalted()  returns FALSE (0000ms, 0825ms total)
T1F54 001:922 JLINK_IsHalted()  returns FALSE (0000ms, 0825ms total)
T1F54 001:924 JLINK_IsHalted()  returns FALSE (0000ms, 0825ms total)
T1F54 001:926 JLINK_IsHalted()  returns FALSE (0000ms, 0825ms total)
T1F54 001:928 JLINK_IsHalted()  returns FALSE (0000ms, 0825ms total)
T1F54 001:930 JLINK_IsHalted()  returns FALSE (0000ms, 0825ms total)
T1F54 001:932 JLINK_IsHalted()  returns FALSE (0000ms, 0825ms total)
T1F54 001:934 JLINK_IsHalted() -- CPU_ReadMem(2 bytes @ 0x20000000)  returns TRUE (0005ms, 0830ms total)
T1F54 001:939 JLINK_ReadReg(R15 (PC))  returns 0x20000000 (0000ms, 0825ms total)
T1F54 001:939 JLINK_ClrBPEx(BPHandle = 0x0000000E)  returns 0x00 (0000ms, 0825ms total)
T1F54 001:939 JLINK_ReadReg(R0)  returns 0x00000000 (0000ms, 0825ms total)
T1F54 001:940 JLINK_WriteMem(0x20000164, 0x0400 Bytes, ...) -- Data:  2E 98 D0 F8 AC 00 0C 90 2E 98 00 6B 0B 90 0C 99 ... -- CPU_WriteMem(1024 bytes @ 0x20000164)  returns 0x400 (0012ms, 0837ms total)
T1F54 001:952 JLINK_WriteReg(R0, 0x08002800)  returns 0x00 (0000ms, 0837ms total)
T1F54 001:952 JLINK_WriteReg(R1, 0x00000400)  returns 0x00 (0000ms, 0837ms total)
T1F54 001:952 JLINK_WriteReg(R2, 0x20000164)  returns 0x00 (0000ms, 0837ms total)
T1F54 001:952 JLINK_WriteReg(R3, 0x00000000)  returns 0x00 (0000ms, 0837ms total)
T1F54 001:952 JLINK_WriteReg(R4, 0x00000000)  returns 0x00 (0000ms, 0837ms total)
T1F54 001:952 JLINK_WriteReg(R5, 0x00000000)  returns 0x00 (0000ms, 0837ms total)
T1F54 001:952 JLINK_WriteReg(R6, 0x00000000)  returns 0x00 (0000ms, 0837ms total)
T1F54 001:952 JLINK_WriteReg(R7, 0x00000000)  returns 0x00 (0000ms, 0837ms total)
T1F54 001:953 JLINK_WriteReg(R8, 0x00000000)  returns 0x00 (0000ms, 0837ms total)
T1F54 001:953 JLINK_WriteReg(R9, 0x20000160)  returns 0x00 (0000ms, 0837ms total)
T1F54 001:953 JLINK_WriteReg(R10, 0x00000000)  returns 0x00 (0000ms, 0837ms total)
T1F54 001:953 JLINK_WriteReg(R11, 0x00000000)  returns 0x00 (0000ms, 0837ms total)
T1F54 001:953 JLINK_WriteReg(R12, 0x00000000)  returns 0x00 (0000ms, 0837ms total)
T1F54 001:953 JLINK_WriteReg(R13 (SP), 0x20000800)  returns 0x00 (0000ms, 0837ms total)
T1F54 001:953 JLINK_WriteReg(R14, 0x20000001)  returns 0x00 (0000ms, 0837ms total)
T1F54 001:953 JLINK_WriteReg(R15 (PC), 0x200000F4)  returns 0x00 (0000ms, 0837ms total)
T1F54 001:953 JLINK_WriteReg(XPSR, 0x01000000)  returns 0x00 (0000ms, 0837ms total)
T1F54 001:953 JLINK_WriteReg(MSP, 0x20000800)  returns 0x00 (0000ms, 0837ms total)
T1F54 001:953 JLINK_WriteReg(PSP, 0x20000800)  returns 0x00 (0000ms, 0837ms total)
T1F54 001:953 JLINK_WriteReg(CFBP, 0x00000000)  returns 0x00 (0000ms, 0837ms total)
T1F54 001:953 JLINK_SetBPEx(Addr = 0x20000000, Type = 0xFFFFFFF2)  returns 0x0000000F (0000ms, 0837ms total)
T1F54 001:953 JLINK_Go() (0003ms, 0840ms total)
T1F54 001:956 JLINK_IsHalted()  returns FALSE (0001ms, 0841ms total)
T1F54 002:004 JLINK_IsHalted() -- CPU_ReadMem(2 bytes @ 0x20000000)  returns TRUE (0004ms, 0844ms total)
T1F54 002:008 JLINK_ReadReg(R15 (PC))  returns 0x20000000 (0000ms, 0840ms total)
T1F54 002:008 JLINK_ClrBPEx(BPHandle = 0x0000000F)  returns 0x00 (0000ms, 0840ms total)
T1F54 002:008 JLINK_ReadReg(R0)  returns 0x00000000 (0000ms, 0840ms total)
T1F54 002:008 JLINK_WriteMem(0x20000164, 0x0400 Bytes, ...) -- Data:  07 C3 4F F0 7C 52 27 A9 0B A8 07 F0 CA F8 0B A8 ... -- CPU_WriteMem(1024 bytes @ 0x20000164)  returns 0x400 (0013ms, 0853ms total)
T1F54 002:021 JLINK_WriteReg(R0, 0x08002C00)  returns 0x00 (0000ms, 0853ms total)
T1F54 002:021 JLINK_WriteReg(R1, 0x00000400)  returns 0x00 (0000ms, 0853ms total)
T1F54 002:021 JLINK_WriteReg(R2, 0x20000164)  returns 0x00 (0000ms, 0853ms total)
T1F54 002:021 JLINK_WriteReg(R3, 0x00000000)  returns 0x00 (0000ms, 0853ms total)
T1F54 002:021 JLINK_WriteReg(R4, 0x00000000)  returns 0x00 (0000ms, 0853ms total)
T1F54 002:021 JLINK_WriteReg(R5, 0x00000000)  returns 0x00 (0000ms, 0853ms total)
T1F54 002:021 JLINK_WriteReg(R6, 0x00000000)  returns 0x00 (0000ms, 0853ms total)
T1F54 002:021 JLINK_WriteReg(R7, 0x00000000)  returns 0x00 (0000ms, 0853ms total)
T1F54 002:021 JLINK_WriteReg(R8, 0x00000000)  returns 0x00 (0000ms, 0853ms total)
T1F54 002:021 JLINK_WriteReg(R9, 0x20000160)  returns 0x00 (0000ms, 0853ms total)
T1F54 002:021 JLINK_WriteReg(R10, 0x00000000)  returns 0x00 (0000ms, 0853ms total)
T1F54 002:021 JLINK_WriteReg(R11, 0x00000000)  returns 0x00 (0000ms, 0853ms total)
T1F54 002:021 JLINK_WriteReg(R12, 0x00000000)  returns 0x00 (0000ms, 0853ms total)
T1F54 002:021 JLINK_WriteReg(R13 (SP), 0x20000800)  returns 0x00 (0000ms, 0853ms total)
T1F54 002:021 JLINK_WriteReg(R14, 0x20000001)  returns 0x00 (0000ms, 0853ms total)
